/word X,/word Y,/BL X,/BL Y,/BL_b X,/BL_b Y,/Q X,/Q Y,/Q_b X,/Q_b Y
0,0,0,0.4999998747317867,0,0.4999998740297282,0,0.9999999735962297,0,1.595646553514885e-08
4e-11,0,4e-11,0.4992726771032235,4e-11,0.4992625007331733,4e-11,0.9999636557990478,4e-11,3.261684019436505e-06
1e-10,0,1e-10,0.4986213484887472,1e-10,0.4986044745523476,1e-10,0.9999612586202232,1e-10,3.848825582951589e-06
2.2e-10,0,2.2e-10,0.4980649404072963,2.2e-10,0.4980467655538667,2.2e-10,0.9999625575268474,2.2e-10,4.068697860030419e-06
4.6e-10,0,4.6e-10,0.4975978282164459,4.6e-10,0.4975828321169121,4.6e-10,0.9999639541988754,4.6e-10,4.234945094728897e-06
9.400000000000001e-10,0,9.400000000000001e-10,0.497553412412012,9.400000000000001e-10,0.4975416408478541,9.400000000000001e-10,0.9999640727005511,9.400000000000001e-10,4.244657940275175e-06
1.74e-09,0,1.74e-09,0.4977158930612738,1.74e-09,0.4977017948779408,1.74e-09,0.999963574546077,1.74e-09,4.187570974773982e-06
2.4e-09,0,2.4e-09,0.4976647546509342,2.4e-09,0.4976509408876464,2.4e-09,0.999963715217966,2.4e-09,4.203940433907704e-06
2.412500000000001e-09,0.2500000000000022,2.412500000000001e-09,0.5038710765163313,2.412500000000001e-09,0.5030923668151607,2.412500000000001e-09,1.00280480224786,2.412500000000001e-09,0.0004973272999427518
2.431250000000001e-09,0.6250000000000056,2.431250000000001e-09,0.5115939520534815,2.431250000000001e-09,0.4333971332090882,2.431250000000001e-09,1.003287389619664,2.431250000000001e-09,0.009517560983950055
2.45e-09,1,2.45e-09,0.5682027126004688,2.45e-09,0.187487931624174,2.45e-09,0.9851699186435887,2.45e-09,0.01966551715142039
2.45834403290388e-09,1,2.45834403290388e-09,0.590618963680704,2.45834403290388e-09,0.0922226321388028,2.45834403290388e-09,0.9818295260026385,2.45834403290388e-09,0.01204133981519086
2.469782120398391e-09,1,2.469782120398391e-09,0.6160534320088704,2.469782120398391e-09,0.01633036357409023,2.469782120398391e-09,0.9831667483858186,2.469782120398391e-09,0.002814632745927376
2.478774893515326e-09,1,2.478774893515326e-09,0.6305754479124143,2.478774893515326e-09,-0.001103842060277132,2.478774893515326e-09,0.9872432523086357,2.478774893515326e-09,0.0001395734751866709
2.496760439749196e-09,1,2.496760439749196e-09,0.6502426590813494,2.496760439749196e-09,0.0001159285432552209,2.496760439749196e-09,0.9930272948180746,2.496760439749196e-09,-2.266551763463381e-05
2.512529736218416e-09,1,2.512529736218416e-09,0.6618306290471507,2.512529736218416e-09,0.0003532592097411453,2.512529736218416e-09,0.9946007856365414,2.512529736218416e-09,7.501483567028442e-06
2.536320537502241e-09,1,2.536320537502241e-09,0.6726381591487717,2.536320537502241e-09,-6.57267629276322e-05,2.536320537502241e-09,0.9953942618327741,2.536320537502241e-09,5.286270621412812e-05
2.583902140069889e-09,1,2.583902140069889e-09,0.684095466249803,2.583902140069889e-09,-5.070473748214691e-05,2.583902140069889e-09,0.9967134616417068,2.583902140069889e-09,3.648414728802627e-06
2.663833445714616e-09,1,2.663833445714616e-09,0.6880652913080594,2.663833445714616e-09,2.255284875847573e-05,2.663833445714616e-09,0.9970586627768691,2.663833445714616e-09,6.151323830826442e-06
2.779012079429749e-09,1,2.779012079429749e-09,0.6888178482681978,2.779012079429749e-09,1.011631873772217e-05,2.779012079429749e-09,0.9970101536440432,2.779012079429749e-09,4.325564064052623e-06
2.944930932120098e-09,1,2.944930932120098e-09,0.6880319625724792,2.944930932120098e-09,2.531832990489364e-06,2.944930932120098e-09,0.996983674050842,2.944930932120098e-09,4.832724389679116e-06
3.249682461100099e-09,1,3.249682461100099e-09,0.6881085079992078,3.249682461100099e-09,5.763365389157525e-06,3.249682461100099e-09,0.9969908798229847,3.249682461100099e-09,4.590770346432147e-06
3.8591855190601e-09,1,3.8591855190601e-09,0.6882999152838382,3.8591855190601e-09,6.246761428193399e-06,3.8591855190601e-09,0.9969410519358973,3.8591855190601e-09,4.51974913817615e-06
4.37959275953005e-09,1,4.37959275953005e-09,0.688122667372827,4.37959275953005e-09,6.069614418202929e-06,4.37959275953005e-09,0.9969469285778879,4.37959275953005e-09,4.60411511734383e-06
4.9e-09,1,4.9e-09,0.6880740126358864,4.9e-09,6.017652417071662e-06,4.9e-09,0.996943993783312,4.9e-09,4.56294297527767e-06
4.924999999999999e-09,0.5000000000000121,4.924999999999999e-09,0.6722850698948868,4.924999999999999e-09,-0.009762270637574785,4.924999999999999e-09,0.9977560283100311,4.924999999999999e-09,-0.0008854496705480393
4.95e-09,7.66053886991358e-15,4.95e-09,0.6285527160742688,4.95e-09,0.009395644391481123,4.95e-09,0.9959674042740674,4.95e-09,-0.0002756743886004383
4.957910854964477e-09,0,4.957910854964477e-09,0.613203625744957,4.957910854964477e-09,0.027600085754014,4.957910854964477e-09,0.9982590283433471,4.957910854964477e-09,0.0001480760977339515
4.971103573742804e-09,0,4.971103573742804e-09,0.5905904474256165,4.971103573742804e-09,0.05717100384172803,4.971103573742804e-09,0.9997438780257374,4.971103573742804e-09,0.0001126008107720652
4.981558443077182e-09,0,4.981558443077182e-09,0.5763569222630931,4.981558443077182e-09,0.07949479971320325,4.981558443077182e-09,0.9998389918530298,4.981558443077182e-09,7.382005401378742e-05
5.000000000000001e-09,0,5.000000000000001e-09,0.5573598748084763,5.000000000000001e-09,0.1166378682394953,5.000000000000001e-09,0.9996760707607986,5.000000000000001e-09,7.537332293582947e-05
5.036883113845639e-09,0,5.036883113845639e-09,0.5382562487609831,5.036883113845639e-09,0.1799554651824684,5.036883113845639e-09,0.9998181533951137,5.036883113845639e-09,6.643568669616792e-05
5.100000000000001e-09,0,5.100000000000001e-09,0.51499673595466,5.100000000000001e-09,0.2754435345654828,5.100000000000001e-09,0.9999113244330838,5.100000000000001e-09,4.680948692566984e-05
5.161438848371022e-09,0,5.161438848371022e-09,0.5081143452428404,5.161438848371022e-09,0.3435585591864271,5.161438848371022e-09,0.9999337598069242,5.161438848371022e-09,4.105897751279053e-05
5.192158272556533e-09,0,5.192158272556533e-09,0.5049601838783627,5.192158272556533e-09,0.374774200222484,5.192158272556533e-09,0.9999397573586384,5.192158272556533e-09,3.37672157522241e-05
5.253597120927555e-09,0,5.253597120927555e-09,0.5010115237709125,5.253597120927555e-09,0.4244001637775019,5.253597120927555e-09,0.9999528532842865,5.253597120927555e-09,2.538100314285419e-05
5.376474817669597e-09,0,5.376474817669597e-09,0.4982918965077812,5.376474817669597e-09,0.4780572695856945,5.376474817669597e-09,0.9999624140361982,5.376474817669597e-09,1.0689492155257e-05
5.43650216502569e-09,0,5.43650216502569e-09,0.4978623042023766,5.43650216502569e-09,0.4888475477560312,5.43650216502569e-09,0.9999631792813796,5.43650216502569e-09,7.158351715584296e-06
5.556556859737874e-09,0,5.556556859737874e-09,0.4976890069944965,5.556556859737874e-09,0.4958196514524525,5.556556859737874e-09,0.9999635369442442,5.556556859737874e-09,4.887976551254789e-06
5.603628396520755e-09,0,5.603628396520755e-09,0.4976659084786418,5.603628396520755e-09,0.4967906929351426,5.603628396520755e-09,0.9999636894277715,5.603628396520755e-09,4.527698605598345e-06
5.697771470086516e-09,0,5.697771470086516e-09,0.4976520749871138,5.697771470086516e-09,0.4973776800190132,5.697771470086516e-09,0.9999637586745858,5.697771470086516e-09,4.282891193023768e-06
5.886057617218038e-09,0,5.886057617218038e-09,0.4976436781857192,5.886057617218038e-09,0.4977746513954315,5.886057617218038e-09,0.9999637782648496,5.886057617218038e-09,4.190224401015356e-06
6.262629911481082e-09,0,6.262629911481082e-09,0.4976465051307757,6.262629911481082e-09,0.4975926392777708,6.262629911481082e-09,0.9999637643162362,6.262629911481082e-09,4.20008447037373e-06
6.831314955740541e-09,0,6.831314955740541e-09,0.4976462443829575,6.831314955740541e-09,0.4976265172465957,6.831314955740541e-09,0.9999637677778532,6.831314955740541e-09,4.222047300647771e-06
7.4e-09,0,7.4e-09,0.4976455102973782,7.4e-09,0.4976359850620557,7.4e-09,0.9999637697442,7.4e-09,4.199148174997982e-06
7.4125e-09,0.2499999999999939,7.4125e-09,0.5038516201862044,7.4125e-09,0.5030771887261153,7.4125e-09,1.002804813168245,7.4125e-09,0.000497322620743567
7.43125e-09,0.624999999999989,7.43125e-09,0.5115748607247523,7.43125e-09,0.4333845579195362,7.43125e-09,1.003287538131392,7.43125e-09,0.009517455205574539
7.45e-09,0.9999999999999841,7.45e-09,0.5681908146968655,7.45e-09,0.187481306993134,7.45e-09,0.9851675385913695,7.45e-09,0.01966499329042898
7.458344032016664e-09,1,7.458344032016664e-09,0.5906099849594703,7.458344032016664e-09,0.09221901393378958,7.458344032016664e-09,0.9818272972661172,7.458344032016664e-09,0.01204095968587565
7.469782119831766e-09,1,7.469782119831766e-09,0.6160475123613918,7.469782119831766e-09,0.01632954449228489,7.469782119831766e-09,0.9831651554398663,7.469782119831766e-09,0.002814520653256294
7.478774893384565e-09,1,7.478774893384565e-09,0.6305710339860493,7.478774893384565e-09,-0.001103903249811411,7.478774893384565e-09,0.9872422133672286,7.478774893384565e-09,0.0001395772010619866
7.496760440490162e-09,1,7.496760440490162e-09,0.6502399468426541,7.496760440490162e-09,0.0001159727731728818,7.496760440490162e-09,0.9930268861717676,7.496760440490162e-09,-2.26569440527931e-05
7.512529903860809e-09,1,7.512529903860809e-09,0.6618289235736934,7.512529903860809e-09,0.000353283555362956,7.512529903860809e-09,0.9946005863992723,7.512529903860809e-09,7.506900092939044e-06
7.536321020878851e-09,1,7.536321020878851e-09,0.6726372741621665,7.536321020878851e-09,-6.573301276951093e-05,7.536321020878851e-09,0.9953941580000926,7.536321020878851e-09,5.286215625051576e-05
7.583903254914935e-09,1,7.583903254914935e-09,0.6840953675432743,7.583903254914935e-09,-5.07105035057109e-05,7.583903254914935e-09,0.9967134931591987,7.583903254914935e-09,3.648116386642785e-06
7.663832051253513e-09,1,7.663832051253513e-09,0.6880652144830095,7.663832051253513e-09,2.255853306285362e-05,7.663832051253513e-09,0.9970586241786517,7.663832051253513e-09,6.150792998913727e-06
7.779008107040365e-09,1,7.779008107040365e-09,0.6888178421071866,7.779008107040365e-09,1.011780589980606e-05,7.779008107040365e-09,0.9970101496798564,7.779008107040365e-09,4.326009693305533e-06
7.944921583416861e-09,1,7.944921583416861e-09,0.6880319604318317,7.944921583416861e-09,2.530621965573761e-06,7.944921583416861e-09,0.9969836756523086,7.944921583416861e-09,4.832332643952772e-06
8.24966584385958e-09,1,8.24966584385958e-09,0.688108517830856,8.24966584385958e-09,5.763229562724033e-06,8.24966584385958e-09,0.996990884035123,8.24966584385958e-09,4.590745871005223e-06
8.859154364745018e-09,1,8.859154364745018e-09,0.68829991752506,8.859154364745018e-09,6.24687936968992e-06,8.859154364745018e-09,0.9969410495936055,8.859154364745018e-09,4.51976623897955e-06
9.379577182372509e-09,1,9.379577182372509e-09,0.6881226671724533,9.379577182372509e-09,6.069622587688194e-06,9.379577182372509e-09,0.9969469285019199,9.379577182372509e-09,4.604120138653468e-06
9.899999999999999e-09,1,9.899999999999999e-09,0.6880740126040926,9.899999999999999e-09,6.017644964284704e-06,9.899999999999999e-09,0.9969439938564657,9.899999999999999e-09,4.562938345867333e-06
9.925e-09,0.5000000000000286,9.925e-09,0.6722850698756977,9.925e-09,-0.009762270641327977,9.925e-09,0.997756028321611,9.925e-09,-0.000885449671569189
9.95e-09,2.420286193682841e-14,9.95e-09,0.6285527189056617,9.95e-09,0.009395643945635794,9.95e-09,0.9959674042975996,9.95e-09,-0.0002756743833395689
9.957910855587298e-09,0,9.957910855587298e-09,0.613203627142921,9.957910855587298e-09,0.02760008671549581,9.957910855587298e-09,0.9982590284085142,9.957910855587298e-09,0.0001480760957963945
9.97110357509502e-09,0,9.97110357509502e-09,0.5905904473738115,9.97110357509502e-09,0.05717100635250365,9.97110357509502e-09,0.9997438780471768,9.97110357509502e-09,0.0001126008058653467
9.981558445041534e-09,0,9.981558445041534e-09,0.5763569214370584,9.981558445041534e-09,0.07949480340225051,9.981558445041534e-09,0.999838991854877,9.981558445041534e-09,7.382005263269578e-05
1e-08,0,1e-08,0.5573598759677468,1e-08,0.1166378678506989,1e-08,0.9996760707640516,1e-08,7.537332291671631e-05
1.003688310991693e-08,0,1.003688310991693e-08,0.5382562506178251,1.003688310991693e-08,0.1799554588643684,1.003688310991693e-08,0.9998181533857859,1.003688310991693e-08,6.643568758666908e-05
1.01e-08,0,1.01e-08,0.5149967356849027,1.01e-08,0.2754435348873483,1.01e-08,0.9999113244362029,1.01e-08,4.680948698230388e-05
1.016143885179581e-08,0,1.016143885179581e-08,0.5081143449682527,1.016143885179581e-08,0.3435585626832611,1.016143885179581e-08,0.9999337598087314,1.016143885179581e-08,4.105897714980524e-05
1.019215827769371e-08,0,1.019215827769371e-08,0.5049601835496932,1.019215827769371e-08,0.3747742049189844,1.019215827769371e-08,0.9999397573592829,1.019215827769371e-08,3.376721485262747e-05
1.025359712948952e-08,0,1.025359712948952e-08,0.5010115234587789,1.025359712948952e-08,0.4244001693808118,1.025359712948952e-08,0.9999528532851537,1.025359712948952e-08,2.538100186957596e-05
1.037647483308113e-08,0,1.037647483308113e-08,0.4982918963746663,1.037647483308113e-08,0.4780572734397844,1.037647483308113e-08,0.999962414036773,1.037647483308113e-08,1.068949095026564e-05
1.043650217797869e-08,0,1.043650217797869e-08,0.4978623041606335,1.043650217797869e-08,0.4888475495216955,1.043650217797869e-08,0.9999631792815253,1.043650217797869e-08,7.158351148262678e-06
1.055655686777382e-08,0,1.055655686777382e-08,0.4976890069904255,1.055655686777382e-08,0.4958196516698415,1.055655686777382e-08,0.9999635369442481,1.055655686777382e-08,4.887976461007188e-06
1.060362840727785e-08,0,1.060362840727785e-08,0.4976659084761719,1.060362840727785e-08,0.4967906930713121,1.060362840727785e-08,0.9999636894277794,1.060362840727785e-08,4.527698557600632e-06
1.069777148628593e-08,0,1.069777148628593e-08,0.4976520749858145,1.069777148628593e-08,0.4973776800824635,1.069777148628593e-08,0.9999637586745908,1.069777148628593e-08,4.282891170219395e-06
1.088605764430208e-08,0,1.088605764430208e-08,0.4976436781856237,1.088605764430208e-08,0.4977746513898668,1.088605764430208e-08,0.9999637782648497,1.088605764430208e-08,4.190224399061284e-06
1.126262996033439e-08,0,1.126262996033439e-08,0.4976465051308615,1.126262996033439e-08,0.4975926392745758,1.126262996033439e-08,0.9999637643162362,1.126262996033439e-08,4.200084474372146e-06
1.18313149801672e-08,0,1.18313149801672e-08,0.4976462443829608,1.18313149801672e-08,0.4976265172351296,1.18313149801672e-08,0.9999637677778532,1.18313149801672e-08,4.222047298931928e-06
1.24e-08,0,1.24e-08,0.497645510297384,1.24e-08,0.4976359850677487,1.24e-08,0.9999637697442,1.24e-08,4.19914817858795e-06
1.24125e-08,0.250000000000027,1.24125e-08,0.503851620186212,1.24125e-08,0.5030771887318976,1.24125e-08,1.002804813168245,1.24125e-08,0.0004973226207452587
1.243125e-08,0.6250000000000221,1.243125e-08,0.5115748607247843,1.243125e-08,0.4333845579259574,1.243125e-08,1.003287538131466,1.243125e-08,0.009517455205614898
1.245e-08,1,1.245e-08,0.5681908146968964,1.245e-08,0.1874813069970883,1.245e-08,0.9851675385914165,1.245e-08,0.01966499329069335
1.245834403201663e-08,1,1.245834403201663e-08,0.5906099849594277,1.245834403201663e-08,0.09221901393625892,1.245834403201663e-08,0.9818272972661199,1.245834403201663e-08,0.01204095968611943
1.246978211983173e-08,1,1.246978211983173e-08,0.6160475123613489,1.246978211983173e-08,0.01632954449287913,1.246978211983173e-08,0.9831651554398311,1.246978211983173e-08,0.002814520653379077
1.247877489338453e-08,1,1.247877489338453e-08,0.6305710339860112,1.247877489338453e-08,-0.001103903249733152,1.247877489338453e-08,0.9872422133671931,1.247877489338453e-08,0.0001395772010810963
1.249676044049012e-08,1,1.249676044049012e-08,0.6502399468426248,1.249676044049012e-08,0.0001159727731455783,1.249676044049012e-08,0.9930268861717679,1.249676044049012e-08,-2.265694405624299e-05
1.251252990386065e-08,1,1.251252990386065e-08,0.6618289235735981,1.251252990386065e-08,0.000353283555340794,1.251252990386065e-08,0.9946005863992641,1.251252990386065e-08,7.506900088988862e-06
1.253632102087848e-08,1,1.253632102087848e-08,0.6726372741620337,1.253632102087848e-08,-6.573301276327406e-05,1.253632102087848e-08,0.995394158000078,1.253632102087848e-08,5.286215625174362e-05
1.258390325491414e-08,1,1.258390325491414e-08,0.6840953675431563,1.258390325491414e-08,-5.071050349924602e-05,1.258390325491414e-08,0.996713493159183,1.258390325491414e-08,3.648116387543676e-06
1.266383205125247e-08,1,1.266383205125247e-08,0.6880652144829956,1.266383205125247e-08,2.255853305913047e-05,1.266383205125247e-08,0.9970586241786547,1.266383205125247e-08,6.150792998391033e-06
1.277900810703891e-08,1,1.277900810703891e-08,0.6888178421072034,1.277900810703891e-08,1.011780589888724e-05,1.277900810703891e-08,0.9970101496798585,1.277900810703891e-08,4.326009693107015e-06
1.294492158341478e-08,1,1.294492158341478e-08,0.6880319604318322,1.294492158341478e-08,2.530621966234528e-06,1.294492158341478e-08,0.9969836756523103,1.294492158341478e-08,4.832332644048788e-06
1.324966584385425e-08,1,1.324966584385425e-08,0.6881085178308568,1.324966584385425e-08,5.76322956274374e-06,1.324966584385425e-08,0.9969908840351248,1.324966584385425e-08,4.590745870963141e-06
1.38591543647332e-08,1,1.38591543647332e-08,0.6882999175250663,1.38591543647332e-08,6.246879369633894e-06,1.38591543647332e-08,0.9969410495936049,1.38591543647332e-08,4.519766239072783e-06
1.43795771823666e-08,1,1.43795771823666e-08,0.6881226671724547,1.43795771823666e-08,6.069622587633173e-06,1.43795771823666e-08,0.9969469285019199,1.43795771823666e-08,4.604120138666299e-06
1.49e-08,1,1.49e-08,0.6880740126040916,1.49e-08,6.017644964298797e-06,1.49e-08,0.9969439938564657,1.49e-08,4.562938345841984e-06
1.4925e-08,0.4999999999999625,1.4925e-08,0.6722850698756953,1.4925e-08,-0.009762270641331245,1.4925e-08,0.997756028321611,1.4925e-08,-0.0008854496715692001
1.495e-08,0,1.495e-08,0.6285527189056609,1.495e-08,0.009395643945635291,1.495e-08,0.9959674042975993,1.495e-08,-0.0002756743833395047
1.49579108555873e-08,0,1.49579108555873e-08,0.6132036271429209,1.49579108555873e-08,0.02760008671549614,1.49579108555873e-08,0.9982590284085145,1.49579108555873e-08,0.000148076095796382
1.497110357509502e-08,0,1.497110357509502e-08,0.5905904473738092,1.497110357509502e-08,0.05717100635250708,1.497110357509502e-08,0.9997438780471769,1.497110357509502e-08,0.0001126008058652953
1.498155844504154e-08,0,1.498155844504154e-08,0.5763569214370585,1.498155844504154e-08,0.07949480340224997,1.498155844504154e-08,0.9998389918548775,1.498155844504154e-08,7.382005263267463e-05
1.5e-08,0,1.5e-08,0.5573598759677472,1.5e-08,0.1166378678506986,1.5e-08,0.999676070764051,1.5e-08,7.537332291670482e-05
1.503688310991693e-08,0,1.503688310991693e-08,0.5382562506178254,1.503688310991693e-08,0.179955458864368,1.503688310991693e-08,0.9998181533857859,1.503688310991693e-08,6.643568758668219e-05
1.51e-08,0,1.51e-08,0.5149967356849017,1.51e-08,0.2754435348873497,1.51e-08,0.9999113244362029,1.51e-08,4.680948698231788e-05
1.516143885179581e-08,0,1.516143885179581e-08,0.5081143449682516,1.516143885179581e-08,0.3435585626832552,1.516143885179581e-08,0.9999337598087316,1.516143885179581e-08,4.105897714980056e-05
1.519215827769372e-08,0,1.519215827769372e-08,0.5049601835496922,1.519215827769372e-08,0.3747742049189799,1.519215827769372e-08,0.9999397573592832,1.519215827769372e-08,3.376721485261668e-05
1.525359712948953e-08,0,1.525359712948953e-08,0.5010115234587776,1.525359712948953e-08,0.4244001693808102,1.525359712948953e-08,0.9999528532851543,1.525359712948953e-08,2.53810018696442e-05
1.537647483308115e-08,0,1.537647483308115e-08,0.4982918963746659,1.537647483308115e-08,0.4780572734397863,1.537647483308115e-08,0.9999624140367726,1.537647483308115e-08,1.068949095027216e-05
1.543650217797873e-08,0,1.543650217797873e-08,0.4978623041606334,1.543650217797873e-08,0.4888475495216987,1.543650217797873e-08,0.9999631792815253,1.543650217797873e-08,7.15835114826021e-06
