/Enable X,/Enable Y,/A2 X,/A2 Y,/A1 X,/A1 Y,/A0 X,/A0 Y,/D7 X,/D7 Y,/D6 X,/D6 Y,/D5 X,/D5 Y,/D4 X,/D4 Y,/D3 X,/D3 Y,/D2 X,/D2 Y,/D1 X,/D1 Y,/D0 X,/D0 Y
0,1,0,0,0,1,0,1,0,1.146624587201447e-05,0,1.146337073768174e-05,0,1.146348300377757e-05,0,1.146323446453665e-05,0,0.9999890185928632,0,1.146634275039716e-05,0,1.146634295115906e-05,0,1.146349267510671e-05
4.394660823089762e-12,0.9121067835382047,4.394660823089762e-12,0.0109866520577244,4.394660823089762e-12,0.9780266958845512,4.394660823089762e-12,0.9560533917691024,4.394660823089762e-12,-0.0003315296058435116,4.394660823089762e-12,-5.063622490564362e-05,4.394660823089762e-12,-0.0002065349420799756,4.394660823089762e-12,-1.747538572146625e-05,4.394660823089762e-12,0.9991931498863628,4.394660823089762e-12,-0.0001111445571044671,4.394660823089762e-12,-0.000329168744681241,4.394660823089762e-12,-5.296282257396348e-05
8.628050483337334e-12,0.8274389903332533,8.628050483337334e-12,0.02157012620834333,8.628050483337334e-12,0.9568597475833134,8.628050483337334e-12,0.9137194951666266,8.628050483337334e-12,-0.0003391826307653522,8.628050483337334e-12,-3.794512504528277e-05,8.628050483337334e-12,-0.0001749152814652588,8.628050483337334e-12,-5.451488150737361e-06,8.628050483337334e-12,0.9990528458588144,8.628050483337334e-12,-0.0001038972646727651,8.628050483337334e-12,-0.0003281912539618618,8.628050483337334e-12,-3.521175586338455e-05
1.709482980383248e-11,0.6581034039233504,1.709482980383248e-11,0.0427370745095812,1.709482980383248e-11,0.9145258509808376,1.709482980383248e-11,0.8290517019616752,1.709482980383248e-11,-0.0001959809896318405,1.709482980383248e-11,-1.310215252878952e-05,1.709482980383248e-11,-5.543764734537102e-05,1.709482980383248e-11,4.756672439337447e-06,1.709482980383248e-11,0.999441926866433,1.709482980383248e-11,-5.769679698995501e-05,1.709482980383248e-11,-0.0001710003267143974,1.709482980383248e-11,-6.079332064179043e-06
2.378419887010483e-11,0.5243160225979033,2.378419887010483e-11,0.05946049717526208,2.378419887010483e-11,0.8810790056494758,2.378419887010483e-11,0.7621580112989517,2.378419887010483e-11,-3.473552185857933e-05,2.378419887010483e-11,-8.672356992772975e-06,2.378419887010483e-11,5.747559013207092e-06,2.378419887010483e-11,-9.983765268481993e-07,2.378419887010483e-11,1.00076690673624,2.378419887010483e-11,-2.479975327102682e-05,2.378419887010483e-11,-1.226984755896655e-05,2.378419887010483e-11,-4.249461640195516e-06
3.047820454934051e-11,0.3904359090131898,3.047820454934051e-11,0.07619551137335127,3.047820454934051e-11,0.8476089772532974,3.047820454934051e-11,0.6952179545065948,3.047820454934051e-11,7.254835083704942e-05,3.047820454934051e-11,1.727184094923913e-05,3.047820454934051e-11,3.756923577249493e-05,3.047820454934051e-11,2.067592401167676e-05,3.047820454934051e-11,1.004433613395351,3.047820454934051e-11,2.422612577055769e-05,3.047820454934051e-11,8.313315191887957e-05,3.047820454934051e-11,2.077738421219966e-05
3.535399641095147e-11,0.2929200717809707,3.535399641095147e-11,0.08838499102737866,3.535399641095147e-11,0.8232300179452426,3.535399641095147e-11,0.6464600358904853,3.535399641095147e-11,0.0001450176363456973,3.535399641095147e-11,5.116431652793616e-05,3.535399641095147e-11,7.526042593956904e-05,3.535399641095147e-11,4.896136595184673e-05,3.535399641095147e-11,1.009844580983911,3.535399641095147e-11,7.521090643647892e-05,3.535399641095147e-11,0.0001469920916906519,3.535399641095147e-11,5.489875399475738e-05
3.956862303218761e-11,0.2086275393562479,3.956862303218761e-11,0.09892155758046901,3.956862303218761e-11,0.802156884839062,3.956862303218761e-11,0.604313769678124,3.956862303218761e-11,0.0001366301131593219,3.956862303218761e-11,3.789222192618715e-05,3.956862303218761e-11,5.624288851061034e-05,3.956862303218761e-11,3.236576305222008e-05,3.956862303218761e-11,1.013245320771311,3.956862303218761e-11,6.862953819600581e-05,3.956862303218761e-11,0.0001329825714935748,3.956862303218761e-11,4.080529962697706e-05
4.337459829303829e-11,0.1325080341392343,4.337459829303829e-11,0.1084364957325957,4.337459829303829e-11,0.7831270085348085,4.337459829303829e-11,0.5662540170696171,4.337459829303829e-11,-2.459840836102242e-05,4.337459829303829e-11,-0.0001134206837233389,4.337459829303829e-11,-0.0001028412770777642,4.337459829303829e-11,-0.0001213967743294883,4.337459829303829e-11,1.0030660832653,4.337459829303829e-11,-8.196908258954679e-05,4.337459829303829e-11,-3.084426277054435e-05,4.337459829303829e-11,-0.0001118490016778358
4.734171483320672e-11,0.05316570333586557,4.734171483320672e-11,0.1183542870830168,4.734171483320672e-11,0.7632914258339664,4.734171483320672e-11,0.5265828516679327,4.734171483320672e-11,-0.0004544904825647536,4.734171483320672e-11,-0.0005242436551976873,4.734171483320672e-11,-0.0005219396620304936,4.734171483320672e-11,-0.0005332630215858856,4.734171483320672e-11,0.9561594210733675,4.734171483320672e-11,-0.0004975419003554414,4.734171483320672e-11,-0.0004617199558105918,4.734171483320672e-11,-0.0005247484340714125
5e-11,0,5e-11,0.125,5e-11,0.75,5e-11,0.5,5e-11,-0.0008579919494203133,5e-11,-0.0009140260076609576,5e-11,-0.0009168970099147674,5e-11,-0.0009231187995710992,5e-11,0.8948461843623552,5e-11,-0.0008922282132960027,5e-11,-0.0008653842868413533,5e-11,-0.0009164557121824246
5.098092579708128e-11,0,5.098092579708128e-11,0.1274523144927032,5.098092579708128e-11,0.7450953710145936,5.098092579708128e-11,0.4901907420291872,5.098092579708128e-11,-0.0008483434766899222,5.098092579708128e-11,-0.0009851603658988311,5.098092579708128e-11,-0.000921359306767017,5.098092579708128e-11,-0.0009986583332397625,5.098092579708128e-11,0.8650199375218883,5.098092579708128e-11,-0.00095173849165381,5.098092579708128e-11,-0.0008521195864867758,5.098092579708128e-11,-0.0009819714593638559
5.2480851115747e-11,0,5.2480851115747e-11,0.1312021277893675,5.2480851115747e-11,0.7375957444212651,5.2480851115747e-11,0.47519148884253,5.2480851115747e-11,-0.0009330525917839025,5.2480851115747e-11,-0.00113800437407405,5.2480851115747e-11,-0.001028412656767055,5.2480851115747e-11,-0.001154862682325495,5.2480851115747e-11,0.8149111863916588,5.2480851115747e-11,-0.001091480891714552,5.2480851115747e-11,-0.0009367557321385543,5.2480851115747e-11,-0.001134579138194014
5.379700905353031e-11,0,5.379700905353031e-11,0.1344925226338258,5.379700905353031e-11,0.7310149547323485,5.379700905353031e-11,0.4620299094646969,5.379700905353031e-11,-0.00111674057142395,5.379700905353031e-11,-0.001324517464903425,5.379700905353031e-11,-0.00122555874770166,5.379700905353031e-11,-0.00135104928333584,5.379700905353031e-11,0.7642029039563882,5.379700905353031e-11,-0.001275890743391361,5.379700905353031e-11,-0.001126795583137441,5.379700905353031e-11,-0.001323793006174362
5.623838634027121e-11,0,5.623838634027121e-11,0.140595965850678,5.623838634027121e-11,0.718808068298644,5.623838634027121e-11,0.4376161365972879,5.623838634027121e-11,-0.001460868849088098,5.623838634027121e-11,-0.001624405572874693,5.623838634027121e-11,-0.001569080472895912,5.623838634027121e-11,-0.001666049593275172,5.623838634027121e-11,0.6517949203954599,5.623838634027121e-11,-0.001583564673810392,5.623838634027121e-11,-0.001479150765639203,5.623838634027121e-11,-0.001637648073056584
5.898443140334285e-11,0,5.898443140334285e-11,0.1474610785083571,5.898443140334285e-11,0.7050778429832858,5.898443140334285e-11,0.4101556859665715,5.898443140334285e-11,-0.001635833498115521,5.898443140334285e-11,-0.001731165440102303,5.898443140334285e-11,-0.001721400611806534,5.898443140334285e-11,-0.00176515554354733,5.898443140334285e-11,0.5008572335861483,5.898443140334285e-11,-0.001690154861104203,5.898443140334285e-11,-0.001655107886725536,5.898443140334285e-11,-0.001746033784581082
6.211427499963888e-11,0,6.211427499963888e-11,0.1552856874990972,6.211427499963888e-11,0.6894286250018056,6.211427499963888e-11,0.3788572500036111,6.211427499963888e-11,-0.001598287965038676,6.211427499963888e-11,-0.001632835589179532,6.211427499963888e-11,-0.001652166500410825,6.211427499963888e-11,-0.001655427412508273,6.211427499963888e-11,0.3309898423517396,6.211427499963888e-11,-0.001600507116349468,6.211427499963888e-11,-0.001612084667025895,6.211427499963888e-11,-0.001640429513391089
6.434054413325887e-11,0,6.434054413325887e-11,0.1608513603331472,6.434054413325887e-11,0.6782972793337056,6.434054413325887e-11,0.3565945586674113,6.434054413325887e-11,-0.001466528758864064,6.434054413325887e-11,-0.001469646885849357,6.434054413325887e-11,-0.001502256494814332,6.434054413325887e-11,-0.001486452281977425,6.434054413325887e-11,0.2269061486562926,6.434054413325887e-11,-0.001444796999456492,6.434054413325887e-11,-0.001475268918019215,6.434054413325887e-11,-0.001474408349849771
6.67613023156881e-11,0,6.67613023156881e-11,0.1669032557892202,6.67613023156881e-11,0.6661934884215595,6.67613023156881e-11,0.332386976843119,6.67613023156881e-11,-0.001208557082014139,6.67613023156881e-11,-0.001192829715625816,6.67613023156881e-11,-0.001230047712722454,6.67613023156881e-11,-0.001205575794215412,6.67613023156881e-11,0.1407676324902046,6.67613023156881e-11,-0.001173933993127907,6.67613023156881e-11,-0.001212912567217199,6.67613023156881e-11,-0.001193338592958544
6.942845729657913e-11,0,6.942845729657913e-11,0.1735711432414478,6.942845729657913e-11,0.6528577135171043,6.942845729657913e-11,0.3057154270342087,6.942845729657913e-11,-0.000873726880514243,6.942845729657913e-11,-0.0008457218119844265,6.942845729657913e-11,-0.0008853587505667541,6.942845729657913e-11,-0.0008545378972422936,6.942845729657913e-11,0.07834834966983575,6.942845729657913e-11,-0.0008346906345390828,6.942845729657913e-11,-0.00087444184461882,6.942845729657913e-11,-0.0008442041020068555
7.23474218389047e-11,0,7.23474218389047e-11,0.1808685545972618,7.23474218389047e-11,0.6382628908054765,7.23474218389047e-11,0.276525781610953,7.23474218389047e-11,-0.0005491815493733818,7.23474218389047e-11,-0.0005192197352886427,7.23474218389047e-11,-0.0005546364346707209,7.23474218389047e-11,-0.0005234744665047767,7.23474218389047e-11,0.0391309457847878,7.23474218389047e-11,-0.0005161387551858739,7.23474218389047e-11,-0.0005478132309406304,7.23474218389047e-11,-0.0005133380040215872
7.544846783640131e-11,0,7.544846783640131e-11,0.1886211695910033,7.544846783640131e-11,0.6227576608179934,7.544846783640131e-11,0.245515321635987,7.544846783640131e-11,-0.000305119682215099,7.544846783640131e-11,-0.0002782824941030877,7.544846783640131e-11,-0.0003073822707412803,7.544846783640131e-11,-0.0002755706098039626,7.544846783640131e-11,0.01799628267428871,7.544846783640131e-11,-0.0002834486717686282,7.544846783640131e-11,-0.0003025939361721125,7.544846783640131e-11,-0.0002680926225482845
7.858765795260715e-11,0,7.858765795260715e-11,0.1964691448815179,7.858765795260715e-11,0.6070617102369642,7.858765795260715e-11,0.2141234204739285,7.858765795260715e-11,-0.000153524137242766,7.858765795260715e-11,-0.0001365753088717391,7.858765795260715e-11,-0.000154542661588566,7.858765795260715e-11,-0.00012585556654973,7.858765795260715e-11,0.008074701102972946,7.858765795260715e-11,-0.0001456918894776316,7.858765795260715e-11,-0.0001510783597869159,7.858765795260715e-11,-0.0001206121085989965
8.203385982832091e-11,0,8.203385982832091e-11,0.2050846495708022,8.203385982832091e-11,0.5898307008583955,8.203385982832091e-11,0.179661401716791,8.203385982832091e-11,-6.509908767504316e-05,8.203385982832091e-11,-5.90542244296162e-05,8.203385982832091e-11,-6.513058060989752e-05,8.203385982832091e-11,-3.811955060739436e-05,8.203385982832091e-11,0.003283749670555991,8.203385982832091e-11,-7.251626299671744e-05,8.203385982832091e-11,-6.210913489827877e-05,8.203385982832091e-11,-4.007365013173914e-05
8.624230753589967e-11,0,8.624230753589967e-11,0.2156057688397492,8.624230753589967e-11,0.5687884623205017,8.624230753589967e-11,0.1375769246410034,8.624230753589967e-11,-1.44412167694536e-05,8.624230753589967e-11,-2.053136675441289e-06,8.624230753589967e-11,-1.087949879631312e-05,8.624230753589967e-11,9.116904065608416e-06,8.624230753589967e-11,0.001074085083434508,8.624230753589967e-11,-5.262859679094877e-05,8.624230753589967e-11,-7.657873388767294e-06,8.624230753589967e-11,1.000778858814821e-05
8.997083433026527e-11,0,8.997083433026527e-11,0.2249270858256631,8.997083433026527e-11,0.5501458283486738,8.997083433026527e-11,0.1002916566973474,8.997083433026527e-11,2.252419923367333e-06,8.997083433026527e-11,1.747177205501845e-05,8.997083433026527e-11,8.433970723747338e-06,8.997083433026527e-11,1.001392123522775e-05,8.997083433026527e-11,0.0004055231747135044,8.997083433026527e-11,-7.337663879062781e-05,8.997083433026527e-11,1.217915667271346e-05,8.997083433026527e-11,2.331869776474239e-05
9.436429758960683e-11,0,9.436429758960683e-11,0.2359107439740171,9.436429758960683e-11,0.5281785120519659,9.436429758960683e-11,0.05635702410393173,9.436429758960683e-11,1.034843699894219e-05,9.436429758960683e-11,-1.348906262273786e-05,9.436429758960683e-11,1.57967865551303e-05,9.436429758960683e-11,-1.272256810824352e-05,9.436429758960683e-11,0.000145791596459651,9.436429758960683e-11,-9.818642501742572e-05,9.436429758960683e-11,1.922277371755123e-05,9.436429758960683e-11,-3.673486988528891e-06
9.718214879480341e-11,0,9.718214879480341e-11,0.2429553719870085,9.718214879480341e-11,0.5140892560259829,9.718214879480341e-11,0.02817851205196586,9.718214879480341e-11,1.197010991811313e-05,9.718214879480341e-11,-4.271084575407796e-05,9.718214879480341e-11,1.619794094465395e-05,9.718214879480341e-11,-2.596846274655967e-05,9.718214879480341e-11,7.249817302834976e-05,9.718214879480341e-11,-9.629118458198619e-05,9.718214879480341e-11,1.931028717879998e-05,9.718214879480341e-11,-2.724857412210961e-05
1e-10,0,1e-10,0.25,1e-10,0.5,1e-10,0,1e-10,1.379450529789585e-05,1e-10,-6.066057566342957e-05,1e-10,1.778109883384738e-05,1e-10,-2.9791587710692e-05,1e-10,5.492940143622591e-05,1e-10,-8.533982607141671e-05,1e-10,2.055716565361155e-05,1e-10,-3.752440784020578e-05
1.017219092368115e-10,0,1.017219092368115e-10,0.2543047730920287,1.017219092368115e-10,0.4913904538159426,1.017219092368115e-10,0,1.017219092368115e-10,6.399410476937775e-05,1.017219092368115e-10,-5.879565375880723e-05,1.017219092368115e-10,6.750252357693927e-05,1.017219092368115e-10,-2.038160401134815e-05,1.017219092368115e-10,9.44638398012699e-05,1.017219092368115e-10,-7.04334617714732e-05,1.017219092368115e-10,7.676567041121278e-05,1.017219092368115e-10,-2.810251561574639e-05
1.037444644009144e-10,0,1.037444644009144e-10,0.2593611610022859,1.037444644009144e-10,0.4812776779954282,1.037444644009144e-10,0,1.037444644009144e-10,9.062389837246377e-05,1.037444644009144e-10,-5.792796715695723e-05,1.037444644009144e-10,9.884793992403052e-05,1.037444644009144e-10,-1.406709509768692e-05,1.037444644009144e-10,0.0001152383718143569,1.037444644009144e-10,-5.24248697961e-05,1.037444644009144e-10,0.0001094743232780402,1.037444644009144e-10,-2.187463109958078e-05
1.056937224539726e-10,0,1.056937224539726e-10,0.2642343061349314,1.056937224539726e-10,0.4715313877301371,1.056937224539726e-10,0,1.056937224539726e-10,7.861212079833104e-05,1.056937224539726e-10,-5.676494393531304e-05,1.056937224539726e-10,8.157108119832177e-05,1.056937224539726e-10,-1.200851564481379e-05,1.056937224539726e-10,9.812136821214417e-05,1.056937224539726e-10,-3.597388160804478e-05,1.056937224539726e-10,9.576798507158078e-05,1.056937224539726e-10,-1.999128070899158e-05
1.095674077188314e-10,0,1.095674077188314e-10,0.2739185192970786,1.095674077188314e-10,0.4521629614058429,1.095674077188314e-10,0,1.095674077188314e-10,4.605966185639864e-05,1.095674077188314e-10,-4.586172890934307e-05,1.095674077188314e-10,4.807577633037321e-05,1.095674077188314e-10,-1.795941159293451e-06,1.095674077188314e-10,5.667153384254012e-05,1.095674077188314e-10,-8.147615032010943e-06,1.095674077188314e-10,5.864219640057012e-05,1.095674077188314e-10,-8.008849588083516e-06
1.146044994334532e-10,0,1.146044994334532e-10,0.2865112485836331,1.146044994334532e-10,0.4269775028327338,1.146044994334532e-10,0,1.146044994334532e-10,2.00745912542463e-05,1.146044994334532e-10,-2.53527496187293e-05,1.146044994334532e-10,3.141944178758628e-05,1.146044994334532e-10,1.493925542793104e-05,1.146044994334532e-10,2.4595463100926e-05,1.146044994334532e-10,4.480072906337912e-06,1.146044994334532e-10,3.457725295873704e-05,1.146044994334532e-10,1.247457563270135e-05
1.194753294373231e-10,0,1.194753294373231e-10,0.2986883235933078,1.194753294373231e-10,0.4026233528133845,1.194753294373231e-10,0,1.194753294373231e-10,1.279832238528991e-05,1.194753294373231e-10,-9.30808788214252e-06,1.194753294373231e-10,2.71444305119975e-05,1.194753294373231e-10,2.646655321350205e-05,1.194753294373231e-10,1.476969303016709e-05,1.194753294373231e-10,5.599568370528254e-06,1.194753294373231e-10,2.719574271781833e-05,1.194753294373231e-10,2.744025933936058e-05
1.257659026617192e-10,0,1.257659026617192e-10,0.3144147566542979,1.257659026617192e-10,0.3711704866914042,1.257659026617192e-10,0,1.257659026617192e-10,8.575737159082519e-06,1.257659026617192e-10,9.707542111630967e-07,1.257659026617192e-10,2.326096496155882e-05,1.257659026617192e-10,3.066349999919492e-05,1.257659026617192e-10,1.052456966997422e-05,1.257659026617192e-10,5.826296787088245e-06,1.257659026617192e-10,1.213477440866558e-05,1.257659026617192e-10,3.452960582144209e-05
1.324582474422686e-10,0,1.324582474422686e-10,0.3311456186056714,1.324582474422686e-10,0.3377087627886572,1.324582474422686e-10,0,1.324582474422686e-10,-3.309854635683846e-05,1.324582474422686e-10,-3.117516482623974e-05,1.324582474422686e-10,-1.924435412063469e-05,1.324582474422686e-10,-4.536766989860511e-05,1.324582474422686e-10,-2.406966105889071e-05,1.324582474422686e-10,-2.732660532186141e-05,1.324582474422686e-10,-8.572641273468212e-05,1.324582474422686e-10,-3.740404138165678e-05
1.373021438776598e-10,0,1.373021438776598e-10,0.3432553596941496,1.373021438776598e-10,0.3134892806117009,1.373021438776598e-10,0,1.373021438776598e-10,-0.0003386157683524148,1.373021438776598e-10,-0.0002996442438884719,1.373021438776598e-10,-0.0002941431458137308,1.373021438776598e-10,-0.0005842122790065625,1.373021438776598e-10,-0.0002800033926022618,1.373021438776598e-10,-0.0002929088960635441,1.373021438776598e-10,-0.0005470246236318849,1.373021438776598e-10,-0.0005650603826142088
1.41644747266931e-10,0,1.41644747266931e-10,0.3541118681673274,1.41644747266931e-10,0.2917762636653451,1.41644747266931e-10,0,1.41644747266931e-10,-0.001845159855095877,1.41644747266931e-10,-0.001653698772406259,1.41644747266931e-10,-0.00164908288831945,1.41644747266931e-10,-0.002847364692768837,1.41644747266931e-10,-0.001573371259805484,1.41644747266931e-10,-0.001632032627858101,1.41644747266931e-10,-0.002494363152313364,1.41644747266931e-10,-0.002863609088183232
1.450331821396593e-10,0,1.450331821396593e-10,0.3625829553491482,1.450331821396593e-10,0.2748340893017036,1.450331821396593e-10,0,1.450331821396593e-10,-0.004723736857131251,1.450331821396593e-10,-0.004369131916067946,1.450331821396593e-10,-0.004364602290548894,1.450331821396593e-10,-0.00534089848752797,1.450331821396593e-10,-0.004222796852296338,1.450331821396593e-10,-0.004326147861280407,1.450331821396593e-10,-0.005398965697408116,1.450331821396593e-10,-0.005659441063639335
1.467626366967593e-10,0,1.467626366967593e-10,0.3669065917418982,1.467626366967593e-10,0.2661868165162037,1.467626366967593e-10,0,1.467626366967593e-10,-0.005705980543560314,1.467626366967593e-10,-0.005526281575409764,1.467626366967593e-10,-0.005556352422126289,1.467626366967593e-10,-0.00453964679621239,1.467626366967593e-10,-0.005478445099346176,1.467626366967593e-10,-0.005496934257166703,1.467626366967593e-10,-0.005199979123680063,1.467626366967593e-10,-0.004331799035171007
