/word X,/word Y,/BL X,/BL Y,/BL_b X,/BL_b Y,/Q X,/Q Y,/Q_b X,/Q_b Y
0,0,0,1,0,0,0,0.4293850665994786,0,0.4293915856298116
6.250000000000001e-13,0,6.250000000000001e-13,0.99375,6.250000000000001e-13,0.00625,6.250000000000001e-13,0.4291605216582779,6.250000000000001e-13,0.4297552692240294
1.875e-12,0,1.875e-12,0.98125,1.875e-12,0.01875,1.875e-12,0.4284714257621999,1.875e-12,0.4306328104163623
4.374999999999999e-12,0,4.374999999999999e-12,0.95625,4.374999999999999e-12,0.04374999999999999,4.374999999999999e-12,0.4265162532684614,4.374999999999999e-12,0.4327952879396158
7.508247396133887e-12,0,7.508247396133887e-12,0.9249175260386612,7.508247396133887e-12,0.07508247396133887,7.508247396133887e-12,0.4219022052199803,7.508247396133887e-12,0.4373281500816053
1.377474218840166e-11,0,1.377474218840166e-11,0.8622525781159833,1.377474218840166e-11,0.1377474218840166,1.377474218840166e-11,0.3909873647424768,1.377474218840166e-11,0.4649280080895667
1.863349243943607e-11,0,1.863349243943607e-11,0.8136650756056393,1.863349243943607e-11,0.1863349243943607,1.863349243943607e-11,0.3195837856746827,1.863349243943607e-11,0.5178609546393681
2.26888504157714e-11,0,2.26888504157714e-11,0.773111495842286,2.26888504157714e-11,0.226888504157714,2.26888504157714e-11,0.1921673490477543,2.26888504157714e-11,0.5933700647734758
2.600714627671179e-11,0,2.600714627671179e-11,0.7399285372328821,2.600714627671179e-11,0.2600714627671178,2.600714627671179e-11,0.07159917893450125,2.600714627671179e-11,0.680173844978455
2.779969051774274e-11,0,2.779969051774274e-11,0.7220030948225726,2.779969051774274e-11,0.2779969051774274,2.779969051774274e-11,0.03525171689379766,2.779969051774274e-11,0.7358256593624813
2.959285954339646e-11,0,2.959285954339646e-11,0.7040714045660355,2.959285954339646e-11,0.2959285954339645,2.959285954339646e-11,0.01897127766257249,2.959285954339646e-11,0.7910321196575034
3.207053193133493e-11,0,3.207053193133493e-11,0.6792946806866508,3.207053193133493e-11,0.3207053193133492,3.207053193133493e-11,0.009839525997794495,3.207053193133493e-11,0.8549230287835838
3.398786554886263e-11,0,3.398786554886263e-11,0.6601213445113737,3.398786554886263e-11,0.3398786554886263,3.398786554886263e-11,0.007011461604585425,3.398786554886263e-11,0.8927675528204985
3.659412600424078e-11,0,3.659412600424078e-11,0.6340587399575921,3.659412600424078e-11,0.3659412600424078,3.659412600424078e-11,0.00424626751602,3.659412600424078e-11,0.9300978389460401
3.977659409654386e-11,0,3.977659409654386e-11,0.6022340590345614,3.977659409654386e-11,0.3977659409654385,3.977659409654386e-11,0.002458479388534838,3.977659409654386e-11,0.9599022897298866
4.356674553181573e-11,0,4.356674553181573e-11,0.5643325446818428,4.356674553181573e-11,0.4356674553181573,4.356674553181573e-11,0.001067463324611334,4.356674553181573e-11,0.9803790534789357
4.78107491198613e-11,0,4.78107491198613e-11,0.521892508801387,4.78107491198613e-11,0.478107491198613,4.78107491198613e-11,0.0004199489325957545,4.78107491198613e-11,0.9922962486958744
5.260188634013782e-11,0,5.260188634013782e-11,0.4739811365986218,5.260188634013782e-11,0.5260188634013782,5.260188634013782e-11,-7.004742429928443e-05,5.260188634013782e-11,0.9984582903073269
5.836001303223021e-11,0,5.836001303223021e-11,0.4163998696776979,5.836001303223021e-11,0.5836001303223021,5.836001303223021e-11,-0.000171434647354994,5.836001303223021e-11,1.001530429028594
6.551784533766828e-11,0,6.551784533766828e-11,0.3448215466233172,6.551784533766828e-11,0.6551784533766828,6.551784533766828e-11,-0.0003437753158326044,6.551784533766828e-11,1.002614103057617
6.796717912694211e-11,0,6.796717912694211e-11,0.3203282087305789,6.796717912694211e-11,0.6796717912694211,6.796717912694211e-11,-0.0002833947869449796,6.796717912694211e-11,1.002738666080867
7.286584670548978e-11,0,7.286584670548978e-11,0.2713415329451022,7.286584670548978e-11,0.7286584670548978,7.286584670548978e-11,-0.0003619580515146015,7.286584670548978e-11,1.002779597342263
7.531518049476361e-11,0,7.531518049476361e-11,0.246848195052364,7.531518049476361e-11,0.753151804947636,7.531518049476361e-11,-0.0002857250486663347,7.531518049476361e-11,1.002823115213454
8.021384807331127e-11,0,8.021384807331127e-11,0.1978615192668873,8.021384807331127e-11,0.8021384807331127,8.021384807331127e-11,-0.000387686397502922,8.021384807331127e-11,1.002742162800316
8.26631818625851e-11,0,8.26631818625851e-11,0.173368181374149,8.26631818625851e-11,0.826631818625851,8.26631818625851e-11,-0.0003200902739925666,8.26631818625851e-11,1.002750435892953
8.756184944113277e-11,0,8.756184944113277e-11,0.1243815055886723,8.756184944113277e-11,0.8756184944113277,8.756184944113277e-11,-0.0003877215983180557,8.756184944113277e-11,1.0026643406264
9.366470532460887e-11,0,9.366470532460887e-11,0.06335294675391134,9.366470532460887e-11,0.9366470532460887,9.366470532460887e-11,-0.0003430547379444456,9.366470532460887e-11,1.002611416284483
1e-10,0,1e-10,0,1e-10,1,1e-10,-0.0004138590698182188,1e-10,1.002501212897036
1.018860314267356e-10,0,1.018860314267356e-10,0,1.018860314267356e-10,1,1.018860314267356e-10,-0.0001869566400522278,1.018860314267356e-10,1.001908210936645
1.026486259717733e-10,0,1.026486259717733e-10,0,1.026486259717733e-10,1,1.026486259717733e-10,-0.0001290711154698278,1.026486259717733e-10,1.001671750621609
1.041738150618487e-10,0,1.041738150618487e-10,0,1.041738150618487e-10,1,1.041738150618487e-10,-8.566785889281239e-05,1.041738150618487e-10,1.001262181605979
1.072241932419994e-10,0,1.072241932419994e-10,0,1.072241932419994e-10,1,1.072241932419994e-10,-4.74640989231125e-05,1.072241932419994e-10,1.000698453621367
1.133249496023009e-10,0,1.133249496023009e-10,0,1.133249496023009e-10,1,1.133249496023009e-10,-1.130464366300038e-05,1.133249496023009e-10,1.000172902455796
1.255264623229039e-10,0,1.255264623229039e-10,0,1.255264623229039e-10,1,1.255264623229039e-10,4.505326180732257e-06,1.255264623229039e-10,0.9999489551237459
1.448562742652342e-10,0,1.448562742652342e-10,0,1.448562742652342e-10,1,1.448562742652342e-10,2.920705358859326e-06,1.448562742652342e-10,0.9999613444576272
1.756231545437992e-10,0,1.756231545437992e-10,0,1.756231545437992e-10,1,1.756231545437992e-10,4.203911058770567e-06,1.756231545437992e-10,0.9999574769263198
2.371569151009291e-10,0,2.371569151009291e-10,0,2.371569151009291e-10,1,2.371569151009291e-10,3.124217164359567e-06,2.371569151009291e-10,0.9999598710661377
3.60224436215189e-10,0,3.60224436215189e-10,0,3.60224436215189e-10,1,3.60224436215189e-10,4.147109902152963e-06,3.60224436215189e-10,0.9999581374953126
6.063594784437088e-10,0,6.063594784437088e-10,0,6.063594784437088e-10,1,6.063594784437088e-10,3.144105830086742e-06,6.063594784437088e-10,0.9999596053817479
1.098629562900748e-09,0,1.098629562900748e-09,0,1.098629562900748e-09,1,1.098629562900748e-09,4.134413926684671e-06,1.098629562900748e-09,0.999958250649237
1.749314781450374e-09,0,1.749314781450374e-09,0,1.749314781450374e-09,1,1.749314781450374e-09,3.149952364913155e-06,1.749314781450374e-09,0.9999595418833027
2.4e-09,0,2.4e-09,0,2.4e-09,1,2.4e-09,4.12963058833599e-06,2.4e-09,0.9999583025991484
2.410983029146641e-09,0.2196605829328062,2.410983029146641e-09,0,2.410983029146641e-09,1,2.410983029146641e-09,0.0003971389200804266,2.410983029146641e-09,1.003233432839031
2.422311063122e-09,0.4462212624399822,2.422311063122e-09,0,2.422311063122e-09,1,2.422311063122e-09,0.0004322083496849816,2.422311063122e-09,1.003246897836363
2.436155531561e-09,0.7231106312199914,2.436155531561e-09,0,2.436155531561e-09,1,2.436155531561e-09,0.0005139475105441653,2.436155531561e-09,1.002357010245908
2.45e-09,1,2.45e-09,0,2.45e-09,1,2.45e-09,0.000472188481128771,2.45e-09,1.002110604698021
2.451726574621281e-09,1,2.451726574621281e-09,0,2.451726574621281e-09,1,2.451726574621281e-09,6.752737278820689e-05,2.451726574621281e-09,1.0014463418992
2.455026856624183e-09,1,2.455026856624183e-09,0,2.455026856624183e-09,1,2.455026856624183e-09,-0.000110233136636315,2.455026856624183e-09,1.000672416128185
2.458311343389233e-09,1,2.458311343389233e-09,0,2.458311343389233e-09,1,2.458311343389233e-09,1.11221763465859e-05,2.458311343389233e-09,1.000372741804371
2.464880316919333e-09,1,2.464880316919333e-09,0,2.464880316919333e-09,1,2.464880316919333e-09,-2.465372694875635e-05,2.464880316919333e-09,1.0000424193438
2.476456778472373e-09,1,2.476456778472373e-09,0,2.476456778472373e-09,1,2.476456778472373e-09,2.187318635298572e-05,2.476456778472373e-09,0.9999662643736663
2.496954283274449e-09,1,2.496954283274449e-09,0,2.496954283274449e-09,1,2.496954283274449e-09,-1.312105258873147e-05,2.496954283274449e-09,0.9999512994065483
2.53101502845433e-09,1,2.53101502845433e-09,0,2.53101502845433e-09,1,2.53101502845433e-09,1.849697195074982e-05,2.53101502845433e-09,0.9999668929938652
2.599136518814091e-09,1,2.599136518814091e-09,0,2.599136518814091e-09,1,2.599136518814091e-09,-1.168503568985054e-05,2.599136518814091e-09,0.9999513619245785
2.735379499533615e-09,1,2.735379499533615e-09,0,2.735379499533615e-09,1,2.735379499533615e-09,1.81071003727359e-05,2.735379499533615e-09,0.9999671578217357
3.006782586602632e-09,1,3.006782586602632e-09,0,3.006782586602632e-09,1,3.006782586602632e-09,-1.172813798258203e-05,3.006782586602632e-09,0.9999513329965368
3.549588760740667e-09,1,3.549588760740667e-09,0,3.549588760740667e-09,1,3.549588760740667e-09,1.833052069818763e-05,3.549588760740667e-09,0.9999672080062011
4.349588760740667e-09,1,4.349588760740667e-09,0,4.349588760740667e-09,1,4.349588760740667e-09,-1.186806217068771e-05,4.349588760740667e-09,0.9999513651349485
4.9e-09,1,4.9e-09,0,4.9e-09,1,4.9e-09,1.835466044062029e-05,4.9e-09,0.9999671935751391
4.910169898309078e-09,0.7966020338184492,4.910169898309078e-09,0,4.910169898309078e-09,1,4.910169898309078e-09,-0.0004962337434449011,4.910169898309078e-09,0.9984848991208611
4.920933853702667e-09,0.5813229259466508,4.920933853702667e-09,0,4.920933853702667e-09,1,4.920933853702667e-09,-0.0005391459021168324,4.920933853702667e-09,0.9976310402335425
4.935466926851334e-09,0.290661462973321,4.935466926851334e-09,0,4.935466926851334e-09,1,4.935466926851334e-09,-0.0004065027554833955,4.935466926851334e-09,0.9970552734444268
4.95e-09,7.66053886991358e-15,4.95e-09,0,4.95e-09,1,4.95e-09,-0.0003480816980209802,4.95e-09,0.9952709168371349
4.951761707889785e-09,0,4.951761707889785e-09,0,4.951761707889785e-09,1,4.951761707889785e-09,4.970456805188946e-05,4.951761707889785e-09,0.9965370151305271
4.955106610021876e-09,0,4.955106610021876e-09,0,4.955106610021876e-09,1,4.955106610021876e-09,0.000180718466753473,4.955106610021876e-09,0.9981155602277388
4.958485871658144e-09,0,4.958485871658144e-09,0,4.958485871658144e-09,1,4.958485871658144e-09,4.770108572974439e-05,4.958485871658144e-09,0.9989140484290514
4.965244394930681e-09,0,4.965244394930681e-09,0,4.965244394930681e-09,1,4.965244394930681e-09,3.467494802912147e-05,4.965244394930681e-09,0.9996860262863053
4.976285545256114e-09,0,4.976285545256114e-09,0,4.976285545256114e-09,1,4.976285545256114e-09,-6.111746432776406e-06,4.976285545256114e-09,0.9999448839874215
4.988142772628057e-09,0,4.988142772628057e-09,0,4.988142772628057e-09,1,4.988142772628057e-09,1.215688053460211e-05,4.988142772628057e-09,0.9999642103522716
5.000000000000001e-09,0,5.000000000000001e-09,0,5.000000000000001e-09,1,5.000000000000001e-09,-3.076279816725314e-06,5.000000000000001e-09,0.9999554441768034
5.001482153421494e-09,0,5.001482153421494e-09,0.01482153421492957,5.001482153421494e-09,0.9851784657850704,5.001482153421494e-09,0.000185186113638991,5.001482153421494e-09,0.9994903433124355
5.00444646026448e-09,0,5.00444646026448e-09,0.04446460264478871,5.00444646026448e-09,0.9555353973552113,5.00444646026448e-09,0.0003267597723656383,5.00444646026448e-09,0.9986841087140053
5.008189674235663e-09,0,5.008189674235663e-09,0.0818967423566159,5.008189674235663e-09,0.9181032576433841,5.008189674235663e-09,0.000322709708340982,5.008189674235663e-09,0.9980470638168819
5.015185841931024e-09,0,5.015185841931024e-09,0.1518584193102285,5.015185841931024e-09,0.8481415806897715,5.015185841931024e-09,0.0003546031471314305,5.015185841931024e-09,0.9974974024476159
5.016975615878852e-09,0,5.016975615878852e-09,0.1697561587885095,5.016975615878852e-09,0.8302438412114905,5.016975615878852e-09,0.0003482566087296827,5.016975615878852e-09,0.99743067163365
5.020555163774508e-09,0,5.020555163774508e-09,0.2055516377450716,5.020555163774508e-09,0.7944483622549284,5.020555163774508e-09,0.0003468452688947223,5.020555163774508e-09,0.9973278945873758
5.027714259565821e-09,0,5.027714259565821e-09,0.2771425956581957,5.027714259565821e-09,0.7228574043418043,5.027714259565821e-09,0.0003387912390206837,5.027714259565821e-09,0.9971857202581993
5.034081715418987e-09,0,5.034081715418987e-09,0.3408171541898584,5.034081715418987e-09,0.6591828458101416,5.034081715418987e-09,0.0003317449049391435,5.034081715418987e-09,0.9970897145972581
5.043282770094209e-09,0,5.043282770094209e-09,0.4328277009420803,5.043282770094209e-09,0.5671722990579198,5.043282770094209e-09,0.0003204359288831391,5.043282770094209e-09,0.9969642995261135
5.060083582904432e-09,0,5.060083582904432e-09,0.6008358290443119,5.060083582904432e-09,0.3991641709556881,5.060083582904432e-09,0.000303814981500791,5.060083582904432e-09,0.9967438104954758
5.065073135041379e-09,0,5.065073135041379e-09,0.6507313504137772,5.065073135041379e-09,0.3492686495862228,5.065073135041379e-09,0.0002990167601751054,5.065073135041379e-09,0.9966758731345451
5.067567911109852e-09,0,5.067567911109852e-09,0.6756791110985098,5.067567911109852e-09,0.3243208889014902,5.067567911109852e-09,0.0002958669357933488,5.067567911109852e-09,0.996631239384002
5.072557463246798e-09,0,5.072557463246798e-09,0.7255746324679749,5.072557463246798e-09,0.2744253675320251,5.072557463246798e-09,0.0002781801498994657,5.072557463246798e-09,0.9963961729482216
5.075052239315272e-09,0,5.075052239315272e-09,0.7505223931527076,5.075052239315272e-09,0.2494776068472924,5.075052239315272e-09,0.0002531822597781927,5.075052239315272e-09,0.9960811567901224
5.080041791452218e-09,0,5.080041791452218e-09,0.8004179145221728,5.080041791452218e-09,0.1995820854778272,5.080041791452218e-09,4.670827733146751e-05,5.080041791452218e-09,0.9931854866956625
5.082150987440304e-09,0,5.082150987440304e-09,0.8215098744030266,5.082150987440304e-09,0.1784901255969734,5.082150987440304e-09,-0.0001898878628593145,5.082150987440304e-09,0.9900990835077876
5.086369379416474e-09,0,5.086369379416474e-09,0.863693794164734,5.086369379416474e-09,0.136306205835266,5.086369379416474e-09,-0.0009940068988599819,5.086369379416474e-09,0.9762125209015603
5.091859452998585e-09,0,5.091859452998585e-09,0.9185945299858427,5.091859452998585e-09,0.08140547001415732,5.091859452998585e-09,-0.001938114304730229,5.091859452998585e-09,0.9438192565628639
5.095929726499293e-09,0,5.095929726499293e-09,0.9592972649929217,5.095929726499293e-09,0.04070273500707833,5.095929726499293e-09,-0.002240112250541525,5.095929726499293e-09,0.9135738979339141
5.100000000000001e-09,0,5.100000000000001e-09,1,5.100000000000001e-09,0,5.100000000000001e-09,-0.002400713598863989,5.100000000000001e-09,0.8814921920865755
5.10169519018418e-09,0,5.10169519018418e-09,1,5.10169519018418e-09,0,5.10169519018418e-09,-0.001599830410362481,5.10169519018418e-09,0.8757688992254588
5.104086584540152e-09,0,5.104086584540152e-09,1,5.104086584540152e-09,0,5.104086584540152e-09,-0.000501537476517798,5.104086584540152e-09,0.8712995949995632
5.106333343743523e-09,0,5.106333343743523e-09,1,5.106333343743523e-09,0,5.106333343743523e-09,-9.465126230510045e-06,5.106333343743523e-09,0.8707186648570276
5.110826862150265e-09,0,5.110826862150265e-09,1,5.110826862150265e-09,0,5.110826862150265e-09,3.317979450237981e-05,5.110826862150265e-09,0.8704437427722358
5.114904771936918e-09,0,5.114904771936918e-09,1,5.114904771936918e-09,0,5.114904771936918e-09,5.358010515863951e-05,5.114904771936918e-09,0.8704867944236387
5.123060591510224e-09,0,5.123060591510224e-09,1,5.123060591510224e-09,0,5.123060591510224e-09,3.678947675483224e-05,5.123060591510224e-09,0.8704712758905525
5.138909599938564e-09,0,5.138909599938564e-09,1,5.138909599938564e-09,0,5.138909599938564e-09,5.024544319461385e-05,5.138909599938564e-09,0.8704790553406366
5.170607616795246e-09,0,5.170607616795246e-09,1,5.170607616795246e-09,0,5.170607616795246e-09,3.780884838606817e-05,5.170607616795246e-09,0.8704722519640661
5.234003650508609e-09,0,5.234003650508609e-09,1,5.234003650508609e-09,0,5.234003650508609e-09,4.956576271974373e-05,5.234003650508609e-09,0.8704790781475331
5.360795717935335e-09,0,5.360795717935335e-09,1,5.360795717935335e-09,0,5.360795717935335e-09,3.799529371942148e-05,5.360795717935335e-09,0.8704724110039384
5.614379852788787e-09,0,5.614379852788787e-09,1,5.614379852788787e-09,0,5.614379852788787e-09,4.945450173743151e-05,5.614379852788787e-09,0.870478992111036
6.12154812249569e-09,0,6.12154812249569e-09,1,6.12154812249569e-09,0,6.12154812249569e-09,3.799973525550683e-05,6.12154812249569e-09,0.8704724420595763
6.760774061247845e-09,0,6.760774061247845e-09,1,6.760774061247845e-09,0,6.760774061247845e-09,4.944531912589745e-05,6.760774061247845e-09,0.8704783920090982
7.4e-09,0,7.4e-09,1,7.4e-09,0,7.4e-09,3.803562969305145e-05,7.4e-09,0.8704723005679614
7.4125e-09,0.2499999999999939,7.4125e-09,1,7.4125e-09,0,7.4125e-09,0.0006321309640451076,7.4125e-09,0.8684126840043724
7.424850963107211e-09,0.4970192621441957,7.424850963107211e-09,1,7.424850963107211e-09,0,7.424850963107211e-09,0.007064154302784978,7.424850963107211e-09,0.8457919383011855
7.437425481553605e-09,0.7485096310720734,7.437425481553605e-09,1,7.437425481553605e-09,0,7.437425481553605e-09,0.02697080541619779,7.437425481553605e-09,0.7651166833548065
7.443712740776803e-09,0.8742548155360287,7.443712740776803e-09,1,7.443712740776803e-09,0,7.443712740776803e-09,0.04694832084695892,7.443712740776803e-09,0.6948631569585682
7.45e-09,0.9999999999999841,7.45e-09,1,7.45e-09,0,7.45e-09,0.09316546393281466,7.45e-09,0.601419816406249
7.451465205500299e-09,1,7.451465205500299e-09,1,7.451465205500299e-09,0,7.451465205500299e-09,0.1105206704492219,7.451465205500299e-09,0.5769627617722851
7.453824019001608e-09,1,7.453824019001608e-09,1,7.453824019001608e-09,0,7.453824019001608e-09,0.1452267944668748,7.453824019001608e-09,0.5388838984877642
7.455938365214886e-09,1,7.455938365214886e-09,1,7.455938365214886e-09,0,7.455938365214886e-09,0.1851653687323354,7.455938365214886e-09,0.5054255563095109
7.460031223184932e-09,1,7.460031223184932e-09,1,7.460031223184932e-09,0,7.460031223184932e-09,0.2814981909935638,7.460031223184932e-09,0.4323087595222278
7.463755463604164e-09,1,7.463755463604164e-09,1,7.463755463604164e-09,0,7.463755463604164e-09,0.3832738773213053,7.463755463604164e-09,0.3445795439286508
7.467630336409206e-09,1,7.467630336409206e-09,1,7.467630336409206e-09,0,7.467630336409206e-09,0.4959797241738058,7.467630336409206e-09,0.2120314163556363
7.47106949151831e-09,1,7.47106949151831e-09,1,7.47106949151831e-09,0,7.47106949151831e-09,0.6063532571777163,7.47106949151831e-09,0.08035487996705756
7.472835639714201e-09,1,7.472835639714201e-09,1,7.472835639714201e-09,0,7.472835639714201e-09,0.669488541634068,7.472835639714201e-09,0.03955119319977532
7.474658081663548e-09,1,7.474658081663548e-09,1,7.474658081663548e-09,0,7.474658081663548e-09,0.7357429677607001,7.474658081663548e-09,0.02095273022569686
7.477213564806782e-09,1,7.477213564806782e-09,1,7.477213564806782e-09,0,7.477213564806782e-09,0.8168523334771577,7.477213564806782e-09,0.01075345660302141
7.479046478090428e-09,1,7.479046478090428e-09,1,7.479046478090428e-09,0,7.479046478090428e-09,0.8624489805672482,7.479046478090428e-09,0.007947726891975253
7.481530564139933e-09,1,7.481530564139933e-09,1,7.481530564139933e-09,0,7.481530564139933e-09,0.9079121531878864,7.481530564139933e-09,0.005003843115329912
